
T3758 000:049 SEGGER J-Link V6.10i Log File (0001ms, 0031ms total)
T3758 000:049 DLL Compiled: Oct 25 2016 19:31:51 (0001ms, 0031ms total)
T3758 000:049 Logging started @ 2019-05-17 01:10 (0001ms, 0031ms total)
T3758 000:050 JLINK_SetWarnOutHandler(...) (0000ms, 0031ms total)
T3758 000:050 JLINK_OpenEx(...)
Firmware: J-Link ARM V7 compiled Jun 20 2012 19:45:53
Hardware: V7.00
S/N: 19087980
Feature(s): RDI, FlashDL, FlashBP, JFlash, GDBFullWEBSRV Webserver running on local port 19080 (0021ms, 0052ms total)
T3758 000:050   returns O.K. (0021ms, 0052ms total)
T3758 000:071 JLINK_SetErrorOutHandler(...) (0000ms, 0052ms total)
T3758 000:071 JLINK_ExecCommand("ProjectFile = "F:\开发板学习\FreeRTos\Code\原装改硬件\FreeRTOS实验6-1 FreeRTOS任务创建和删除实验(动态方法)OK\USER\JLinkSettings.ini"", ...).   returns 0x00 (0053ms, 0105ms total)
T3758 000:125 JLINK_ExecCommand("Device = STM32F103ZE", ...). Device "STM32F103ZE" selected.  returns 0x00 (0003ms, 0108ms total)
T3758 000:128 JLINK_ExecCommand("DisableConnectionTimeout", ...).   returns 0x01 (0000ms, 0108ms total)
T3758 000:128 JLINK_GetHardwareVersion()  returns 0x11170 (0000ms, 0108ms total)
T3758 000:128 JLINK_GetDLLVersion()  returns 61009 (0000ms, 0108ms total)
T3758 000:128 JLINK_GetFirmwareString(...) (0000ms, 0108ms total)
T3758 000:136 JLINK_GetDLLVersion()  returns 61009 (0000ms, 0108ms total)
T3758 000:136 JLINK_GetCompileDateTime() (0000ms, 0108ms total)
T3758 000:138 JLINK_GetFirmwareString(...) (0000ms, 0108ms total)
T3758 000:140 JLINK_GetHardwareVersion()  returns 0x11170 (0000ms, 0108ms total)
T3758 000:151 JLINK_TIF_Select(JLINKARM_TIF_SWD)  returns 0x00 (0002ms, 0110ms total)
T3758 000:153 JLINK_SetSpeed(5000) (0000ms, 0110ms total)
T3758 000:153 JLINK_GetId() >0x108 TIF>Found SWD-DP with ID 0x1BA01477 >0x0D TIF> >0x28 TIF> >0x0D TIF> >0x28 TIF> >0x0D TIF> >0x28 TIF> >0x0D TIF> >0x28 TIF> >0x0D TIF> >0x21 TIF> >0x0D TIF> >0x28 TIF> >0x0D TIF> >0x28 TIF> >0x0D TIF> >0x28 TIF> >0x0D TIF> >0x21 TIF> >0x0D TIF> >0x21 TIF> >0x0D TIF> >0x28 TIF> >0x0D TIF> >0x21 TIF> >0x0D TIF> >0x21 TIF> >0x0D TIF> >0x28 TIF> >0x0D TIF> >0x21 TIF> >0x0D TIF> >0x21 TIF> >0x0D TIF> >0x28 TIF> >0x0D TIF> >0x21 TIF> >0x0D TIF> >0x21 TIF> >0x0D TIF>
 >0x28 TIF> >0x0D TIF> >0x21 TIF> >0x0D TIF> >0x21 TIF> >0x0D TIF> >0x28 TIF> >0x0D TIF> >0x21 TIF> >0x0D TIF> >0x21 TIF> >0x0D TIF> >0x28 TIF> >0x0D TIF> >0x21 TIF> >0x0D TIF> >0x21 TIF> >0x108 TIF>Found SWD-DP with ID 0x1BA01477 >0x0D TIF> >0x28 TIF> >0x0D TIF> >0x28 TIF> >0x0D TIF> >0x28 TIF> >0x0D TIF> >0x28 TIF> >0x0D TIF> >0x21 TIF> >0x0D TIF> >0x28 TIF> >0x0D TIF> >0x28 TIF> >0x0D TIF> >0x21 TIF> >0x0D TIF> >0x21 TIF> >0x0D TIF> >0x21 TIF>AP-IDR: 0x14770011, Type: AHB-AP >0x0D TIF> >0x28 TIF>
 >0x0D TIF> >0x28 TIF> >0x0D TIF> >0x28 TIF> >0x0D TIF> >0x21 TIF> >0x0D TIF> >0x21 TIF> >0x0D TIF> >0x28 TIF> >0x0D TIF> >0x21 TIF> >0x0D TIF> >0x21 TIF>Found Cortex-M3 r1p1, Little endian. >0x0D TIF> >0x28 TIF> -- CPU_ReadMem(4 bytes @ 0xE000EDF0) -- CPU_WriteMem(4 bytes @ 0xE000EDF0) -- CPU_ReadMem(4 bytes @ 0xE0002000)FPUnit: 6 code (BP) slots and 2 literal slots -- CPU_ReadMem(4 bytes @ 0xE000EDFC) -- CPU_WriteMem(4 bytes @ 0xE000EDFC) -- CPU_ReadMem(4 bytes @ 0xE0001000)
 -- CPU_WriteMem(4 bytes @ 0xE0001000) -- CPU_ReadMem(4 bytes @ 0xE000ED88) -- CPU_WriteMem(4 bytes @ 0xE000ED88) -- CPU_ReadMem(4 bytes @ 0xE000ED88) -- CPU_WriteMem(4 bytes @ 0xE000ED88)CoreSight components:ROMTbl 0 @ E00FF000 -- CPU_ReadMem(16 bytes @ 0xE00FF000) -- CPU_ReadMem(16 bytes @ 0xE000EFF0) -- CPU_ReadMem(16 bytes @ 0xE000EFE0)ROMTbl 0 [0]: FFF0F000, CID: B105E00D, PID: 001BB000 SCS -- CPU_ReadMem(16 bytes @ 0xE0001FF0) -- CPU_ReadMem(16 bytes @ 0xE0001FE0)
ROMTbl 0 [1]: FFF02000, CID: B105E00D, PID: 001BB002 DWT -- CPU_ReadMem(16 bytes @ 0xE0002FF0) -- CPU_ReadMem(16 bytes @ 0xE0002FE0)ROMTbl 0 [2]: FFF03000, CID: B105E00D, PID: 000BB003 FPB -- CPU_ReadMem(16 bytes @ 0xE0000FF0) -- CPU_ReadMem(16 bytes @ 0xE0000FE0)ROMTbl 0 [3]: FFF01000, CID: B105E00D, PID: 001BB001 ITM -- CPU_ReadMem(16 bytes @ 0xE00FF010) -- CPU_ReadMem(16 bytes @ 0xE0040FF0) -- CPU_ReadMem(16 bytes @ 0xE0040FE0)ROMTbl 0 [4]: FFF41000, CID: B105900D, PID: 001BB923 TPIU-Lite
 -- CPU_ReadMem(16 bytes @ 0xE0041FF0) -- CPU_ReadMem(16 bytes @ 0xE0041FE0)ROMTbl 0 [5]: FFF42000, CID: B105900D, PID: 101BB924 ETM-M3 >0x0D TIF> >0x21 TIF>  returns 0x1BA01477 (0175ms, 0285ms total)
T3758 000:328 JLINK_GetDLLVersion()  returns 61009 (0000ms, 0285ms total)
T3758 000:328 JLINK_CORE_GetFound()  returns 0x30000FF (0000ms, 0285ms total)
T3758 000:328 JLINK_GetDebugInfo(0x100) -- Value=0xE00FF000  returns 0x00 (0000ms, 0285ms total)
T3758 000:331 JLINK_GetDebugInfo(0x100) -- Value=0xE00FF000  returns 0x00 (0000ms, 0285ms total)
T3758 000:331 JLINK_GetDebugInfo(0x101) -- Value=0xE0041000  returns 0x00 (0000ms, 0285ms total)
T3758 000:331 JLINK_GetDebugInfo(0x102) -- Value=0x00000000  returns 0x00 (0000ms, 0285ms total)
T3758 000:331 JLINK_GetDebugInfo(0x103) -- Value=0xE0040000  returns 0x00 (0000ms, 0285ms total)
T3758 000:331 JLINK_GetDebugInfo(0x104) -- Value=0xE0000000  returns 0x00 (0000ms, 0285ms total)
T3758 000:331 JLINK_GetDebugInfo(0x105) -- Value=0xE0001000  returns 0x00 (0000ms, 0285ms total)
T3758 000:331 JLINK_GetDebugInfo(0x106) -- Value=0xE0002000  returns 0x00 (0000ms, 0285ms total)
T3758 000:331 JLINK_GetDebugInfo(0x107) -- Value=0xE000E000  returns 0x00 (0000ms, 0285ms total)
T3758 000:331 JLINK_GetDebugInfo(0x10C) -- Value=0xE000EDF0  returns 0x00 (0000ms, 0285ms total)
T3758 000:331 JLINK_ReadMemU32(0xE000ED00, 0x0001 Items, ...) -- CPU is running -- CPU_ReadMem(4 bytes @ 0xE000ED00) - Data: 31 C2 1F 41  returns 0x01 (0002ms, 0287ms total)
T3758 000:333 JLINK_SetResetType(JLINKARM_RESET_TYPE_NORMAL)  returns JLINKARM_RESET_TYPE_NORMAL (0000ms, 0287ms total)
T3758 000:333 JLINK_Reset() -- CPU_WriteMem(4 bytes @ 0xE0002000) -- CPU_ReadMem(4 bytes @ 0xE000EDFC) -- CPU_ReadMem(4 bytes @ 0xE0001000) (0015ms, 0302ms total)
T3758 000:348 JLINK_Halt()  returns 0x00 (0000ms, 0302ms total)
T3758 000:348 JLINK_IsHalted()  returns TRUE (0000ms, 0302ms total)
T3758 000:348 JLINK_ReadMemU32(0xE000EDF0, 0x0001 Items, ...) -- CPU_ReadMem(4 bytes @ 0xE000EDF0) - Data: 03 00 03 00  returns 0x01 (0002ms, 0304ms total)
T3758 000:350 JLINK_WriteU32(0xE000EDF0, 0xA05F0003) -- CPU_WriteMem(4 bytes @ 0xE000EDF0)  returns 0x00 (0002ms, 0306ms total)
T3758 000:352 JLINK_WriteU32(0xE000EDFC, 0x01000000) -- CPU_WriteMem(4 bytes @ 0xE000EDFC)  returns 0x00 (0001ms, 0307ms total)
T3758 000:362 JLINK_GetHWStatus(...)  returns 0x00 (0001ms, 0308ms total)
T3758 000:369 JLINK_GetNumBPUnits(Type = 0xFFFFFF00)  returns 0x06 (0000ms, 0308ms total)
T3758 000:369 JLINK_GetNumBPUnits(Type = 0xF0)  returns 0x2000 (0000ms, 0308ms total)
T3758 000:369 JLINK_GetNumWPUnits()  returns 0x04 (0000ms, 0308ms total)
T3758 000:374 JLINK_GetSpeed()  returns 0x12C0 (0000ms, 0308ms total)
T3758 000:377 JLINK_ReadMemU32(0xE000E004, 0x0001 Items, ...) -- CPU_ReadMem(4 bytes @ 0xE000E004) - Data: 01 00 00 00  returns 0x01 (0001ms, 0309ms total)
T3758 000:378 JLINK_ReadMemU32(0xE000E004, 0x0001 Items, ...) -- CPU_ReadMem(4 bytes @ 0xE000E004) - Data: 01 00 00 00  returns 0x01 (0002ms, 0311ms total)
T3758 000:380 JLINK_WriteMem(0xE0001000, 0x001C Bytes, ...) - Data: 01 00 00 00 00 00 00 00 00 00 00 00 00 00 00 00 ... -- CPU_WriteMem(28 bytes @ 0xE0001000)  returns 0x1C (0002ms, 0313ms total)
T3758 000:382 JLINK_ReadMem (0xE0001000, 0x001C Bytes, ...) -- CPU_ReadMem(28 bytes @ 0xE0001000) - Data: 01 00 00 40 00 00 00 00 00 00 00 00 00 00 00 00 ...  returns 0x00 (0002ms, 0315ms total)
T3758 000:384 JLINK_Halt()  returns 0x00 (0000ms, 0315ms total)
T3758 000:384 JLINK_IsHalted()  returns TRUE (0000ms, 0315ms total)
T3758 000:387 JLINK_WriteMem(0x20000000, 0x0164 Bytes, ...) - Data: 00 BE 0A E0 0D 78 2D 06 68 40 08 24 40 00 00 D3 ... -- CPU_WriteMem(356 bytes @ 0x20000000)  returns 0x164 (0004ms, 0319ms total)
T3758 000:391 JLINK_WriteReg(R0, 0x08000000)  returns 0x00 (0000ms, 0319ms total)
T3758 000:391 JLINK_WriteReg(R1, 0x00B71B00)  returns 0x00 (0000ms, 0319ms total)
T3758 000:391 JLINK_WriteReg(R2, 0x00000001)  returns 0x00 (0000ms, 0319ms total)
T3758 000:391 JLINK_WriteReg(R3, 0x00000000)  returns 0x00 (0000ms, 0319ms total)
T3758 000:391 JLINK_WriteReg(R4, 0x00000000)  returns 0x00 (0000ms, 0319ms total)
T3758 000:391 JLINK_WriteReg(R5, 0x00000000)  returns 0x00 (0000ms, 0319ms total)
T3758 000:391 JLINK_WriteReg(R6, 0x00000000)  returns 0x00 (0000ms, 0319ms total)
T3758 000:391 JLINK_WriteReg(R7, 0x00000000)  returns 0x00 (0000ms, 0319ms total)
T3758 000:391 JLINK_WriteReg(R8, 0x00000000)  returns 0x00 (0000ms, 0319ms total)
T3758 000:391 JLINK_WriteReg(R9, 0x20000160)  returns 0x00 (0000ms, 0319ms total)
T3758 000:391 JLINK_WriteReg(R10, 0x00000000)  returns 0x00 (0000ms, 0319ms total)
T3758 000:391 JLINK_WriteReg(R11, 0x00000000)  returns 0x00 (0000ms, 0319ms total)
T3758 000:391 JLINK_WriteReg(R12, 0x00000000)  returns 0x00 (0000ms, 0319ms total)
T3758 000:391 JLINK_WriteReg(R13 (SP), 0x20001000)  returns 0x00 (0000ms, 0319ms total)
T3758 000:391 JLINK_WriteReg(R14, 0x20000001)  returns 0x00 (0000ms, 0319ms total)
T3758 000:391 JLINK_WriteReg(R15 (PC), 0x20000038)  returns 0x00 (0000ms, 0319ms total)
T3758 000:391 JLINK_WriteReg(XPSR, 0x01000000)  returns 0x00 (0000ms, 0319ms total)
T3758 000:391 JLINK_WriteReg(MSP, 0x20001000)  returns 0x00 (0000ms, 0319ms total)
T3758 000:391 JLINK_WriteReg(PSP, 0x20001000)  returns 0x00 (0000ms, 0319ms total)
T3758 000:391 JLINK_WriteReg(CFBP, 0x00000000)  returns 0x00 (0000ms, 0319ms total)
T3758 000:391 JLINK_SetBPEx(Addr = 0x20000000, Type = 0xFFFFFFF2) -- CPU_ReadMem(2 bytes @ 0x20000000)  returns 0x00000001 (0002ms, 0321ms total)
T3758 000:393 JLINK_Go() -- CPU_WriteMem(2 bytes @ 0x20000000) -- CPU_WriteMem(4 bytes @ 0xE0002008) -- CPU_WriteMem(4 bytes @ 0xE000200C) -- CPU_WriteMem(4 bytes @ 0xE0002010) -- CPU_WriteMem(4 bytes @ 0xE0002014) -- CPU_WriteMem(4 bytes @ 0xE0002018) -- CPU_WriteMem(4 bytes @ 0xE000201C) -- CPU_ReadMem(4 bytes @ 0xE0001000) -- CPU_WriteMem(4 bytes @ 0xE0001004) (0013ms, 0334ms total)
T3758 000:406 JLINK_IsHalted() -- CPU_ReadMem(2 bytes @ 0x20000000)  returns TRUE (0007ms, 0341ms total)
T3758 000:413 JLINK_ReadReg(R15 (PC))  returns 0x20000000 (0000ms, 0334ms total)
T3758 000:413 JLINK_ClrBPEx(BPHandle = 0x00000001)  returns 0x00 (0000ms, 0334ms total)
T3758 000:413 JLINK_ReadReg(R0)  returns 0x00000000 (0000ms, 0334ms total)
T3758 000:414 JLINK_WriteReg(R0, 0x08000000)  returns 0x00 (0000ms, 0334ms total)
T3758 000:414 JLINK_WriteReg(R1, 0x00B71B00)  returns 0x00 (0000ms, 0334ms total)
T3758 000:414 JLINK_WriteReg(R2, 0x00000001)  returns 0x00 (0000ms, 0334ms total)
T3758 000:414 JLINK_WriteReg(R3, 0x00000000)  returns 0x00 (0000ms, 0334ms total)
T3758 000:414 JLINK_WriteReg(R4, 0x00000000)  returns 0x00 (0000ms, 0334ms total)
T3758 000:414 JLINK_WriteReg(R5, 0x00000000)  returns 0x00 (0000ms, 0334ms total)
T3758 000:414 JLINK_WriteReg(R6, 0x00000000)  returns 0x00 (0000ms, 0334ms total)
T3758 000:414 JLINK_WriteReg(R7, 0x00000000)  returns 0x00 (0000ms, 0334ms total)
T3758 000:414 JLINK_WriteReg(R8, 0x00000000)  returns 0x00 (0000ms, 0334ms total)
T3758 000:414 JLINK_WriteReg(R9, 0x20000160)  returns 0x00 (0000ms, 0334ms total)
T3758 000:414 JLINK_WriteReg(R10, 0x00000000)  returns 0x00 (0000ms, 0334ms total)
T3758 000:414 JLINK_WriteReg(R11, 0x00000000)  returns 0x00 (0000ms, 0334ms total)
T3758 000:414 JLINK_WriteReg(R12, 0x00000000)  returns 0x00 (0000ms, 0334ms total)
T3758 000:414 JLINK_WriteReg(R13 (SP), 0x20001000)  returns 0x00 (0000ms, 0334ms total)
T3758 000:414 JLINK_WriteReg(R14, 0x20000001)  returns 0x00 (0000ms, 0334ms total)
T3758 000:414 JLINK_WriteReg(R15 (PC), 0x2000007C)  returns 0x00 (0000ms, 0334ms total)
T3758 000:414 JLINK_WriteReg(XPSR, 0x01000000)  returns 0x00 (0000ms, 0334ms total)
T3758 000:414 JLINK_WriteReg(MSP, 0x20001000)  returns 0x00 (0000ms, 0334ms total)
T3758 000:414 JLINK_WriteReg(PSP, 0x20001000)  returns 0x00 (0000ms, 0334ms total)
T3758 000:414 JLINK_WriteReg(CFBP, 0x00000000)  returns 0x00 (0000ms, 0334ms total)
T3758 000:414 JLINK_SetBPEx(Addr = 0x20000000, Type = 0xFFFFFFF2)  returns 0x00000002 (0000ms, 0334ms total)
T3758 000:414 JLINK_Go() -- CPU_ReadMem(4 bytes @ 0xE0001000) (0005ms, 0339ms total)
T3758 000:419 JLINK_IsHalted()  returns FALSE (0001ms, 0340ms total)
T3758 000:456 JLINK_IsHalted() -- CPU_ReadMem(2 bytes @ 0x20000000)  returns TRUE (0007ms, 0346ms total)
T3758 000:463 JLINK_ReadReg(R15 (PC))  returns 0x20000000 (0000ms, 0339ms total)
T3758 000:463 JLINK_ClrBPEx(BPHandle = 0x00000002)  returns 0x00 (0000ms, 0339ms total)
T3758 000:463 JLINK_ReadReg(R0)  returns 0x00000000 (0000ms, 0339ms total)
T3758 000:515 JLINK_WriteReg(R0, 0x00000001)  returns 0x00 (0000ms, 0339ms total)
T3758 000:515 JLINK_WriteReg(R1, 0x00B71B00)  returns 0x00 (0000ms, 0339ms total)
T3758 000:515 JLINK_WriteReg(R2, 0x00000001)  returns 0x00 (0000ms, 0339ms total)
T3758 000:515 JLINK_WriteReg(R3, 0x00000000)  returns 0x00 (0000ms, 0339ms total)
T3758 000:515 JLINK_WriteReg(R4, 0x00000000)  returns 0x00 (0000ms, 0339ms total)
T3758 000:515 JLINK_WriteReg(R5, 0x00000000)  returns 0x00 (0000ms, 0339ms total)
T3758 000:515 JLINK_WriteReg(R6, 0x00000000)  returns 0x00 (0000ms, 0339ms total)
T3758 000:515 JLINK_WriteReg(R7, 0x00000000)  returns 0x00 (0000ms, 0339ms total)
T3758 000:515 JLINK_WriteReg(R8, 0x00000000)  returns 0x00 (0000ms, 0339ms total)
T3758 000:515 JLINK_WriteReg(R9, 0x20000160)  returns 0x00 (0000ms, 0339ms total)
T3758 000:515 JLINK_WriteReg(R10, 0x00000000)  returns 0x00 (0000ms, 0339ms total)
T3758 000:515 JLINK_WriteReg(R11, 0x00000000)  returns 0x00 (0000ms, 0339ms total)
T3758 000:515 JLINK_WriteReg(R12, 0x00000000)  returns 0x00 (0000ms, 0339ms total)
T3758 000:515 JLINK_WriteReg(R13 (SP), 0x20001000)  returns 0x00 (0000ms, 0339ms total)
T3758 000:515 JLINK_WriteReg(R14, 0x20000001)  returns 0x00 (0000ms, 0339ms total)
T3758 000:515 JLINK_WriteReg(R15 (PC), 0x2000006A)  returns 0x00 (0001ms, 0340ms total)
T3758 000:516 JLINK_WriteReg(XPSR, 0x01000000)  returns 0x00 (0000ms, 0340ms total)
T3758 000:516 JLINK_WriteReg(MSP, 0x20001000)  returns 0x00 (0000ms, 0340ms total)
T3758 000:516 JLINK_WriteReg(PSP, 0x20001000)  returns 0x00 (0000ms, 0340ms total)
T3758 000:516 JLINK_WriteReg(CFBP, 0x00000000)  returns 0x00 (0000ms, 0340ms total)
T3758 000:516 JLINK_SetBPEx(Addr = 0x20000000, Type = 0xFFFFFFF2)  returns 0x00000003 (0000ms, 0340ms total)
T3758 000:516 JLINK_Go() -- CPU_ReadMem(4 bytes @ 0xE0001000) (0005ms, 0345ms total)
T3758 000:521 JLINK_IsHalted() -- CPU_ReadMem(2 bytes @ 0x20000000)  returns TRUE (0006ms, 0351ms total)
T3758 000:527 JLINK_ReadReg(R15 (PC))  returns 0x20000000 (0000ms, 0345ms total)
T3758 000:527 JLINK_ClrBPEx(BPHandle = 0x00000003)  returns 0x00 (0000ms, 0345ms total)
T3758 000:527 JLINK_ReadReg(R0)  returns 0x00000000 (0000ms, 0345ms total)
T3758 000:532 JLINK_WriteMem(0x20000000, 0x0164 Bytes, ...) - Data: 00 BE 0A E0 0D 78 2D 06 68 40 08 24 40 00 00 D3 ... -- CPU_WriteMem(356 bytes @ 0x20000000)  returns 0x164 (0005ms, 0350ms total)
T3758 000:537 JLINK_WriteReg(R0, 0x08000000)  returns 0x00 (0000ms, 0350ms total)
T3758 000:537 JLINK_WriteReg(R1, 0x00B71B00)  returns 0x00 (0000ms, 0350ms total)
T3758 000:537 JLINK_WriteReg(R2, 0x00000002)  returns 0x00 (0000ms, 0350ms total)
T3758 000:537 JLINK_WriteReg(R3, 0x00000000)  returns 0x00 (0000ms, 0350ms total)
T3758 000:537 JLINK_WriteReg(R4, 0x00000000)  returns 0x00 (0000ms, 0350ms total)
T3758 000:537 JLINK_WriteReg(R5, 0x00000000)  returns 0x00 (0000ms, 0350ms total)
T3758 000:537 JLINK_WriteReg(R6, 0x00000000)  returns 0x00 (0000ms, 0350ms total)
T3758 000:537 JLINK_WriteReg(R7, 0x00000000)  returns 0x00 (0000ms, 0350ms total)
T3758 000:537 JLINK_WriteReg(R8, 0x00000000)  returns 0x00 (0000ms, 0350ms total)
T3758 000:537 JLINK_WriteReg(R9, 0x20000160)  returns 0x00 (0000ms, 0350ms total)
T3758 000:537 JLINK_WriteReg(R10, 0x00000000)  returns 0x00 (0000ms, 0350ms total)
T3758 000:537 JLINK_WriteReg(R11, 0x00000000)  returns 0x00 (0000ms, 0350ms total)
T3758 000:537 JLINK_WriteReg(R12, 0x00000000)  returns 0x00 (0000ms, 0350ms total)
T3758 000:537 JLINK_WriteReg(R13 (SP), 0x20001000)  returns 0x00 (0000ms, 0350ms total)
T3758 000:537 JLINK_WriteReg(R14, 0x20000001)  returns 0x00 (0000ms, 0350ms total)
T3758 000:537 JLINK_WriteReg(R15 (PC), 0x20000038)  returns 0x00 (0000ms, 0350ms total)
T3758 000:537 JLINK_WriteReg(XPSR, 0x01000000)  returns 0x00 (0000ms, 0350ms total)
T3758 000:537 JLINK_WriteReg(MSP, 0x20001000)  returns 0x00 (0000ms, 0350ms total)
T3758 000:537 JLINK_WriteReg(PSP, 0x20001000)  returns 0x00 (0000ms, 0350ms total)
T3758 000:537 JLINK_WriteReg(CFBP, 0x00000000)  returns 0x00 (0000ms, 0350ms total)
T3758 000:537 JLINK_SetBPEx(Addr = 0x20000000, Type = 0xFFFFFFF2) -- CPU_ReadMem(2 bytes @ 0x20000000)  returns 0x00000004 (0002ms, 0352ms total)
T3758 000:539 JLINK_Go() -- CPU_WriteMem(2 bytes @ 0x20000000) -- CPU_ReadMem(4 bytes @ 0xE0001000) (0006ms, 0358ms total)
T3758 000:545 JLINK_IsHalted() -- CPU_ReadMem(2 bytes @ 0x20000000)  returns TRUE (0006ms, 0364ms total)
T3758 000:551 JLINK_ReadReg(R15 (PC))  returns 0x20000000 (0000ms, 0358ms total)
T3758 000:551 JLINK_ClrBPEx(BPHandle = 0x00000004)  returns 0x00 (0000ms, 0358ms total)
T3758 000:551 JLINK_ReadReg(R0)  returns 0x00000000 (0000ms, 0358ms total)
T3758 000:552 JLINK_WriteMem(0x20000164, 0x0400 Bytes, ...) - Data: 78 5B 00 20 79 02 00 08 1F 48 00 08 3D 08 00 08 ... -- CPU_WriteMem(1024 bytes @ 0x20000164)  returns 0x400 (0006ms, 0364ms total)
T3758 000:558 JLINK_WriteReg(R0, 0x08000000)  returns 0x00 (0000ms, 0364ms total)
T3758 000:558 JLINK_WriteReg(R1, 0x00000400)  returns 0x00 (0000ms, 0364ms total)
T3758 000:558 JLINK_WriteReg(R2, 0x20000164)  returns 0x00 (0000ms, 0364ms total)
T3758 000:558 JLINK_WriteReg(R3, 0x00000000)  returns 0x00 (0000ms, 0364ms total)
T3758 000:558 JLINK_WriteReg(R4, 0x00000000)  returns 0x00 (0000ms, 0364ms total)
T3758 000:558 JLINK_WriteReg(R5, 0x00000000)  returns 0x00 (0000ms, 0364ms total)
T3758 000:558 JLINK_WriteReg(R6, 0x00000000)  returns 0x00 (0000ms, 0364ms total)
T3758 000:558 JLINK_WriteReg(R7, 0x00000000)  returns 0x00 (0000ms, 0364ms total)
T3758 000:558 JLINK_WriteReg(R8, 0x00000000)  returns 0x00 (0000ms, 0364ms total)
T3758 000:558 JLINK_WriteReg(R9, 0x20000160)  returns 0x00 (0000ms, 0364ms total)
T3758 000:558 JLINK_WriteReg(R10, 0x00000000)  returns 0x00 (0000ms, 0364ms total)
T3758 000:558 JLINK_WriteReg(R11, 0x00000000)  returns 0x00 (0000ms, 0364ms total)
T3758 000:558 JLINK_WriteReg(R12, 0x00000000)  returns 0x00 (0000ms, 0364ms total)
T3758 000:558 JLINK_WriteReg(R13 (SP), 0x20001000)  returns 0x00 (0000ms, 0364ms total)
T3758 000:558 JLINK_WriteReg(R14, 0x20000001)  returns 0x00 (0000ms, 0364ms total)
T3758 000:558 JLINK_WriteReg(R15 (PC), 0x200000F4)  returns 0x00 (0000ms, 0364ms total)
T3758 000:558 JLINK_WriteReg(XPSR, 0x01000000)  returns 0x00 (0000ms, 0364ms total)
T3758 000:558 JLINK_WriteReg(MSP, 0x20001000)  returns 0x00 (0000ms, 0364ms total)
T3758 000:558 JLINK_WriteReg(PSP, 0x20001000)  returns 0x00 (0000ms, 0364ms total)
T3758 000:558 JLINK_WriteReg(CFBP, 0x00000000)  returns 0x00 (0000ms, 0364ms total)
T3758 000:558 JLINK_SetBPEx(Addr = 0x20000000, Type = 0xFFFFFFF2)  returns 0x00000005 (0000ms, 0364ms total)
T3758 000:558 JLINK_Go() -- CPU_ReadMem(4 bytes @ 0xE0001000) (0004ms, 0368ms total)
T3758 000:562 JLINK_IsHalted()  returns FALSE (0001ms, 0369ms total)
T3758 000:575 JLINK_IsHalted()  returns FALSE (0002ms, 0370ms total)
T3758 000:581 JLINK_IsHalted()  returns FALSE (0002ms, 0370ms total)
T3758 000:585 JLINK_IsHalted()  returns FALSE (0002ms, 0370ms total)
T3758 000:590 JLINK_IsHalted()  returns FALSE (0002ms, 0370ms total)
T3758 000:594 JLINK_IsHalted() -- CPU_ReadMem(2 bytes @ 0x20000000)  returns TRUE (0007ms, 0375ms total)
T3758 000:601 JLINK_ReadReg(R15 (PC))  returns 0x20000000 (0000ms, 0368ms total)
T3758 000:601 JLINK_ClrBPEx(BPHandle = 0x00000005)  returns 0x00 (0000ms, 0368ms total)
T3758 000:601 JLINK_ReadReg(R0)  returns 0x00000000 (0000ms, 0368ms total)
T3758 000:602 JLINK_WriteMem(0x20000164, 0x0400 Bytes, ...) - Data: 2B 00 00 00 20 00 00 00 70 B5 04 46 0D 46 21 46 ... -- CPU_WriteMem(1024 bytes @ 0x20000164)  returns 0x400 (0006ms, 0374ms total)
T3758 000:608 JLINK_WriteReg(R0, 0x08000400)  returns 0x00 (0000ms, 0374ms total)
T3758 000:608 JLINK_WriteReg(R1, 0x00000400)  returns 0x00 (0000ms, 0374ms total)
T3758 000:608 JLINK_WriteReg(R2, 0x20000164)  returns 0x00 (0000ms, 0374ms total)
T3758 000:608 JLINK_WriteReg(R3, 0x00000000)  returns 0x00 (0000ms, 0374ms total)
T3758 000:608 JLINK_WriteReg(R4, 0x00000000)  returns 0x00 (0000ms, 0374ms total)
T3758 000:608 JLINK_WriteReg(R5, 0x00000000)  returns 0x00 (0000ms, 0374ms total)
T3758 000:608 JLINK_WriteReg(R6, 0x00000000)  returns 0x00 (0000ms, 0374ms total)
T3758 000:608 JLINK_WriteReg(R7, 0x00000000)  returns 0x00 (0000ms, 0374ms total)
T3758 000:608 JLINK_WriteReg(R8, 0x00000000)  returns 0x00 (0000ms, 0374ms total)
T3758 000:608 JLINK_WriteReg(R9, 0x20000160)  returns 0x00 (0000ms, 0374ms total)
T3758 000:608 JLINK_WriteReg(R10, 0x00000000)  returns 0x00 (0000ms, 0374ms total)
T3758 000:608 JLINK_WriteReg(R11, 0x00000000)  returns 0x00 (0000ms, 0374ms total)
T3758 000:608 JLINK_WriteReg(R12, 0x00000000)  returns 0x00 (0000ms, 0374ms total)
T3758 000:608 JLINK_WriteReg(R13 (SP), 0x20001000)  returns 0x00 (0000ms, 0374ms total)
T3758 000:608 JLINK_WriteReg(R14, 0x20000001)  returns 0x00 (0000ms, 0374ms total)
T3758 000:608 JLINK_WriteReg(R15 (PC), 0x200000F4)  returns 0x00 (0000ms, 0374ms total)
T3758 000:608 JLINK_WriteReg(XPSR, 0x01000000)  returns 0x00 (0000ms, 0374ms total)
T3758 000:608 JLINK_WriteReg(MSP, 0x20001000)  returns 0x00 (0000ms, 0374ms total)
T3758 000:608 JLINK_WriteReg(PSP, 0x20001000)  returns 0x00 (0000ms, 0374ms total)
T3758 000:608 JLINK_WriteReg(CFBP, 0x00000000)  returns 0x00 (0000ms, 0374ms total)
T3758 000:608 JLINK_SetBPEx(Addr = 0x20000000, Type = 0xFFFFFFF2)  returns 0x00000006 (0000ms, 0374ms total)
T3758 000:608 JLINK_Go() -- CPU_ReadMem(4 bytes @ 0xE0001000) (0004ms, 0378ms total)
T3758 000:612 JLINK_IsHalted()  returns FALSE (0001ms, 0379ms total)
T3758 000:617 JLINK_IsHalted()  returns FALSE (0001ms, 0379ms total)
T3758 000:620 JLINK_IsHalted()  returns FALSE (0002ms, 0380ms total)
T3758 000:624 JLINK_IsHalted()  returns FALSE (0002ms, 0380ms total)
T3758 000:629 JLINK_IsHalted()  returns FALSE (0001ms, 0379ms total)
T3758 000:633 JLINK_IsHalted()  returns FALSE (0002ms, 0380ms total)
T3758 000:638 JLINK_IsHalted()  returns FALSE (0002ms, 0380ms total)
T3758 000:643 JLINK_IsHalted() -- CPU_ReadMem(2 bytes @ 0x20000000)  returns TRUE (0006ms, 0384ms total)
T3758 000:649 JLINK_ReadReg(R15 (PC))  returns 0x20000000 (0000ms, 0378ms total)
T3758 000:649 JLINK_ClrBPEx(BPHandle = 0x00000006)  returns 0x00 (0000ms, 0378ms total)
T3758 000:649 JLINK_ReadReg(R0)  returns 0x00000000 (0000ms, 0378ms total)
T3758 000:650 JLINK_WriteMem(0x20000164, 0x0400 Bytes, ...) - Data: 02 F1 08 06 0E FA 06 F5 0E 88 2E 40 AE 42 0E D1 ... -- CPU_WriteMem(1024 bytes @ 0x20000164)  returns 0x400 (0006ms, 0384ms total)
T3758 000:656 JLINK_WriteReg(R0, 0x08000800)  returns 0x00 (0000ms, 0384ms total)
T3758 000:656 JLINK_WriteReg(R1, 0x00000400)  returns 0x00 (0000ms, 0384ms total)
T3758 000:656 JLINK_WriteReg(R2, 0x20000164)  returns 0x00 (0000ms, 0384ms total)
T3758 000:656 JLINK_WriteReg(R3, 0x00000000)  returns 0x00 (0000ms, 0384ms total)
T3758 000:656 JLINK_WriteReg(R4, 0x00000000)  returns 0x00 (0000ms, 0384ms total)
T3758 000:656 JLINK_WriteReg(R5, 0x00000000)  returns 0x00 (0000ms, 0384ms total)
T3758 000:656 JLINK_WriteReg(R6, 0x00000000)  returns 0x00 (0000ms, 0384ms total)
T3758 000:656 JLINK_WriteReg(R7, 0x00000000)  returns 0x00 (0000ms, 0384ms total)
T3758 000:656 JLINK_WriteReg(R8, 0x00000000)  returns 0x00 (0000ms, 0384ms total)
T3758 000:656 JLINK_WriteReg(R9, 0x20000160)  returns 0x00 (0000ms, 0384ms total)
T3758 000:656 JLINK_WriteReg(R10, 0x00000000)  returns 0x00 (0000ms, 0384ms total)
T3758 000:656 JLINK_WriteReg(R11, 0x00000000)  returns 0x00 (0000ms, 0384ms total)
T3758 000:656 JLINK_WriteReg(R12, 0x00000000)  returns 0x00 (0000ms, 0384ms total)
T3758 000:656 JLINK_WriteReg(R13 (SP), 0x20001000)  returns 0x00 (0000ms, 0384ms total)
T3758 000:656 JLINK_WriteReg(R14, 0x20000001)  returns 0x00 (0000ms, 0384ms total)
T3758 000:656 JLINK_WriteReg(R15 (PC), 0x200000F4)  returns 0x00 (0000ms, 0384ms total)
T3758 000:656 JLINK_WriteReg(XPSR, 0x01000000)  returns 0x00 (0000ms, 0384ms total)
T3758 000:656 JLINK_WriteReg(MSP, 0x20001000)  returns 0x00 (0000ms, 0384ms total)
T3758 000:656 JLINK_WriteReg(PSP, 0x20001000)  returns 0x00 (0000ms, 0384ms total)
T3758 000:656 JLINK_WriteReg(CFBP, 0x00000000)  returns 0x00 (0000ms, 0384ms total)
T3758 000:656 JLINK_SetBPEx(Addr = 0x20000000, Type = 0xFFFFFFF2)  returns 0x00000007 (0000ms, 0384ms total)
T3758 000:656 JLINK_Go() -- CPU_ReadMem(4 bytes @ 0xE0001000) (0004ms, 0388ms total)
T3758 000:660 JLINK_IsHalted()  returns FALSE (0001ms, 0389ms total)
T3758 000:663 JLINK_IsHalted()  returns FALSE (0002ms, 0390ms total)
T3758 000:668 JLINK_IsHalted()  returns FALSE (0002ms, 0390ms total)
T3758 000:672 JLINK_IsHalted()  returns FALSE (0002ms, 0390ms total)
T3758 000:676 JLINK_IsHalted()  returns FALSE (0001ms, 0389ms total)
T3758 000:679 JLINK_IsHalted()  returns FALSE (0001ms, 0389ms total)
T3758 000:684 JLINK_IsHalted()  returns FALSE (0002ms, 0390ms total)
T3758 000:688 JLINK_IsHalted()  returns FALSE (0002ms, 0390ms total)
T3758 000:694 JLINK_IsHalted() -- CPU_ReadMem(2 bytes @ 0x20000000)  returns TRUE (0007ms, 0395ms total)
T3758 000:701 JLINK_ReadReg(R15 (PC))  returns 0x20000000 (0000ms, 0388ms total)
T3758 000:701 JLINK_ClrBPEx(BPHandle = 0x00000007)  returns 0x00 (0000ms, 0388ms total)
T3758 000:701 JLINK_ReadReg(R0)  returns 0x00000000 (0000ms, 0388ms total)
T3758 000:701 JLINK_WriteMem(0x20000164, 0x0400 Bytes, ...) - Data: 0C 46 4F F0 D8 49 28 E0 2B 88 08 46 99 1A 00 24 ... -- CPU_WriteMem(1024 bytes @ 0x20000164)  returns 0x400 (0007ms, 0395ms total)
T3758 000:708 JLINK_WriteReg(R0, 0x08000C00)  returns 0x00 (0000ms, 0395ms total)
T3758 000:708 JLINK_WriteReg(R1, 0x00000400)  returns 0x00 (0000ms, 0395ms total)
T3758 000:708 JLINK_WriteReg(R2, 0x20000164)  returns 0x00 (0000ms, 0395ms total)
T3758 000:708 JLINK_WriteReg(R3, 0x00000000)  returns 0x00 (0000ms, 0395ms total)
T3758 000:708 JLINK_WriteReg(R4, 0x00000000)  returns 0x00 (0000ms, 0395ms total)
T3758 000:708 JLINK_WriteReg(R5, 0x00000000)  returns 0x00 (0000ms, 0395ms total)
T3758 000:708 JLINK_WriteReg(R6, 0x00000000)  returns 0x00 (0000ms, 0395ms total)
T3758 000:708 JLINK_WriteReg(R7, 0x00000000)  returns 0x00 (0000ms, 0395ms total)
T3758 000:708 JLINK_WriteReg(R8, 0x00000000)  returns 0x00 (0000ms, 0395ms total)
T3758 000:708 JLINK_WriteReg(R9, 0x20000160)  returns 0x00 (0000ms, 0395ms total)
T3758 000:708 JLINK_WriteReg(R10, 0x00000000)  returns 0x00 (0000ms, 0395ms total)
T3758 000:708 JLINK_WriteReg(R11, 0x00000000)  returns 0x00 (0000ms, 0395ms total)
T3758 000:708 JLINK_WriteReg(R12, 0x00000000)  returns 0x00 (0000ms, 0395ms total)
T3758 000:708 JLINK_WriteReg(R13 (SP), 0x20001000)  returns 0x00 (0000ms, 0395ms total)
T3758 000:708 JLINK_WriteReg(R14, 0x20000001)  returns 0x00 (0000ms, 0395ms total)
T3758 000:708 JLINK_WriteReg(R15 (PC), 0x200000F4)  returns 0x00 (0000ms, 0395ms total)
T3758 000:708 JLINK_WriteReg(XPSR, 0x01000000)  returns 0x00 (0000ms, 0395ms total)
T3758 000:708 JLINK_WriteReg(MSP, 0x20001000)  returns 0x00 (0000ms, 0395ms total)
T3758 000:708 JLINK_WriteReg(PSP, 0x20001000)  returns 0x00 (0000ms, 0395ms total)
T3758 000:708 JLINK_WriteReg(CFBP, 0x00000000)  returns 0x00 (0000ms, 0395ms total)
T3758 000:708 JLINK_SetBPEx(Addr = 0x20000000, Type = 0xFFFFFFF2)  returns 0x00000008 (0000ms, 0395ms total)
T3758 000:708 JLINK_Go() -- CPU_ReadMem(4 bytes @ 0xE0001000) (0004ms, 0399ms total)
T3758 000:712 JLINK_IsHalted()  returns FALSE (0002ms, 0401ms total)
T3758 000:716 JLINK_IsHalted()  returns FALSE (0002ms, 0401ms total)
T3758 000:723 JLINK_IsHalted()  returns FALSE (0001ms, 0400ms total)
T3758 000:726 JLINK_IsHalted()  returns FALSE (0001ms, 0400ms total)
T3758 000:729 JLINK_IsHalted()  returns FALSE (0001ms, 0400ms total)
T3758 000:734 JLINK_IsHalted()  returns FALSE (0002ms, 0401ms total)
T3758 000:740 JLINK_IsHalted()  returns FALSE (0001ms, 0400ms total)
T3758 000:743 JLINK_IsHalted() -- CPU_ReadMem(2 bytes @ 0x20000000)  returns TRUE (0006ms, 0405ms total)
T3758 000:749 JLINK_ReadReg(R15 (PC))  returns 0x20000000 (0000ms, 0399ms total)
T3758 000:749 JLINK_ClrBPEx(BPHandle = 0x00000008)  returns 0x00 (0000ms, 0399ms total)
T3758 000:749 JLINK_ReadReg(R0)  returns 0x00000000 (0000ms, 0399ms total)
T3758 000:750 JLINK_WriteMem(0x20000164, 0x0400 Bytes, ...) - Data: C8 FB 0A 20 03 F0 C5 FB 0F 20 03 F0 C2 FB 00 20 ... -- CPU_WriteMem(1024 bytes @ 0x20000164)  returns 0x400 (0007ms, 0406ms total)
T3758 000:757 JLINK_WriteReg(R0, 0x08001000)  returns 0x00 (0000ms, 0406ms total)
T3758 000:757 JLINK_WriteReg(R1, 0x00000400)  returns 0x00 (0000ms, 0406ms total)
T3758 000:757 JLINK_WriteReg(R2, 0x20000164)  returns 0x00 (0000ms, 0406ms total)
T3758 000:757 JLINK_WriteReg(R3, 0x00000000)  returns 0x00 (0000ms, 0406ms total)
T3758 000:757 JLINK_WriteReg(R4, 0x00000000)  returns 0x00 (0000ms, 0406ms total)
T3758 000:757 JLINK_WriteReg(R5, 0x00000000)  returns 0x00 (0000ms, 0406ms total)
T3758 000:757 JLINK_WriteReg(R6, 0x00000000)  returns 0x00 (0000ms, 0406ms total)
T3758 000:757 JLINK_WriteReg(R7, 0x00000000)  returns 0x00 (0000ms, 0406ms total)
T3758 000:757 JLINK_WriteReg(R8, 0x00000000)  returns 0x00 (0000ms, 0406ms total)
T3758 000:757 JLINK_WriteReg(R9, 0x20000160)  returns 0x00 (0000ms, 0406ms total)
T3758 000:757 JLINK_WriteReg(R10, 0x00000000)  returns 0x00 (0000ms, 0406ms total)
T3758 000:757 JLINK_WriteReg(R11, 0x00000000)  returns 0x00 (0000ms, 0406ms total)
T3758 000:757 JLINK_WriteReg(R12, 0x00000000)  returns 0x00 (0000ms, 0406ms total)
T3758 000:757 JLINK_WriteReg(R13 (SP), 0x20001000)  returns 0x00 (0000ms, 0406ms total)
T3758 000:757 JLINK_WriteReg(R14, 0x20000001)  returns 0x00 (0000ms, 0406ms total)
T3758 000:757 JLINK_WriteReg(R15 (PC), 0x200000F4)  returns 0x00 (0000ms, 0406ms total)
T3758 000:757 JLINK_WriteReg(XPSR, 0x01000000)  returns 0x00 (0000ms, 0406ms total)
T3758 000:757 JLINK_WriteReg(MSP, 0x20001000)  returns 0x00 (0000ms, 0406ms total)
T3758 000:757 JLINK_WriteReg(PSP, 0x20001000)  returns 0x00 (0000ms, 0406ms total)
T3758 000:757 JLINK_WriteReg(CFBP, 0x00000000)  returns 0x00 (0000ms, 0406ms total)
T3758 000:757 JLINK_SetBPEx(Addr = 0x20000000, Type = 0xFFFFFFF2)  returns 0x00000009 (0000ms, 0406ms total)
T3758 000:757 JLINK_Go() -- CPU_ReadMem(4 bytes @ 0xE0001000) (0004ms, 0410ms total)
T3758 000:761 JLINK_IsHalted()  returns FALSE (0001ms, 0411ms total)
T3758 000:764 JLINK_IsHalted()  returns FALSE (0002ms, 0412ms total)
T3758 000:771 JLINK_IsHalted()  returns FALSE (0001ms, 0411ms total)
T3758 000:774 JLINK_IsHalted()  returns FALSE (0001ms, 0411ms total)
T3758 000:779 JLINK_IsHalted()  returns FALSE (0001ms, 0411ms total)
T3758 000:782 JLINK_IsHalted()  returns FALSE (0001ms, 0411ms total)
T3758 000:785 JLINK_IsHalted()  returns FALSE (0001ms, 0411ms total)
T3758 000:788 JLINK_IsHalted()  returns FALSE (0001ms, 0411ms total)
T3758 000:791 JLINK_IsHalted()  returns FALSE (0001ms, 0412ms total)
T3758 000:794 JLINK_IsHalted() -- CPU_ReadMem(2 bytes @ 0x20000000)  returns TRUE (0006ms, 0417ms total)
T3758 000:800 JLINK_ReadReg(R15 (PC))  returns 0x20000000 (0000ms, 0411ms total)
T3758 000:800 JLINK_ClrBPEx(BPHandle = 0x00000009)  returns 0x00 (0000ms, 0411ms total)
T3758 000:800 JLINK_ReadReg(R0)  returns 0x00000000 (0000ms, 0411ms total)
T3758 000:801 JLINK_WriteMem(0x20000164, 0x0400 Bytes, ...) - Data: C8 F9 00 20 03 F0 C5 F9 00 20 03 F0 C2 F9 00 20 ... -- CPU_WriteMem(1024 bytes @ 0x20000164)  returns 0x400 (0006ms, 0417ms total)
T3758 000:807 JLINK_WriteReg(R0, 0x08001400)  returns 0x00 (0000ms, 0417ms total)
T3758 000:807 JLINK_WriteReg(R1, 0x00000400)  returns 0x00 (0000ms, 0417ms total)
T3758 000:807 JLINK_WriteReg(R2, 0x20000164)  returns 0x00 (0000ms, 0417ms total)
T3758 000:807 JLINK_WriteReg(R3, 0x00000000)  returns 0x00 (0000ms, 0417ms total)
T3758 000:807 JLINK_WriteReg(R4, 0x00000000)  returns 0x00 (0000ms, 0417ms total)
T3758 000:807 JLINK_WriteReg(R5, 0x00000000)  returns 0x00 (0000ms, 0417ms total)
T3758 000:807 JLINK_WriteReg(R6, 0x00000000)  returns 0x00 (0000ms, 0417ms total)
T3758 000:807 JLINK_WriteReg(R7, 0x00000000)  returns 0x00 (0000ms, 0417ms total)
T3758 000:807 JLINK_WriteReg(R8, 0x00000000)  returns 0x00 (0000ms, 0417ms total)
T3758 000:807 JLINK_WriteReg(R9, 0x20000160)  returns 0x00 (0000ms, 0417ms total)
T3758 000:807 JLINK_WriteReg(R10, 0x00000000)  returns 0x00 (0000ms, 0417ms total)
T3758 000:807 JLINK_WriteReg(R11, 0x00000000)  returns 0x00 (0000ms, 0417ms total)
T3758 000:807 JLINK_WriteReg(R12, 0x00000000)  returns 0x00 (0000ms, 0417ms total)
T3758 000:807 JLINK_WriteReg(R13 (SP), 0x20001000)  returns 0x00 (0000ms, 0417ms total)
T3758 000:807 JLINK_WriteReg(R14, 0x20000001)  returns 0x00 (0000ms, 0417ms total)
T3758 000:807 JLINK_WriteReg(R15 (PC), 0x200000F4)  returns 0x00 (0000ms, 0417ms total)
T3758 000:807 JLINK_WriteReg(XPSR, 0x01000000)  returns 0x00 (0000ms, 0417ms total)
T3758 000:807 JLINK_WriteReg(MSP, 0x20001000)  returns 0x00 (0000ms, 0417ms total)
T3758 000:807 JLINK_WriteReg(PSP, 0x20001000)  returns 0x00 (0000ms, 0417ms total)
T3758 000:807 JLINK_WriteReg(CFBP, 0x00000000)  returns 0x00 (0000ms, 0417ms total)
T3758 000:807 JLINK_SetBPEx(Addr = 0x20000000, Type = 0xFFFFFFF2)  returns 0x0000000A (0000ms, 0417ms total)
T3758 000:807 JLINK_Go() -- CPU_ReadMem(4 bytes @ 0xE0001000) (0004ms, 0421ms total)
T3758 000:811 JLINK_IsHalted()  returns FALSE (0001ms, 0422ms total)
T3758 000:814 JLINK_IsHalted()  returns FALSE (0001ms, 0422ms total)
T3758 000:817 JLINK_IsHalted()  returns FALSE (0001ms, 0422ms total)
T3758 000:819 JLINK_IsHalted()  returns FALSE (0002ms, 0423ms total)
T3758 000:822 JLINK_IsHalted()  returns FALSE (0002ms, 0423ms total)
T3758 000:826 JLINK_IsHalted()  returns FALSE (0001ms, 0422ms total)
T3758 000:828 JLINK_IsHalted()  returns FALSE (0002ms, 0423ms total)
T3758 000:831 JLINK_IsHalted()  returns FALSE (0002ms, 0423ms total)
T3758 000:834 JLINK_IsHalted()  returns FALSE (0002ms, 0423ms total)
T3758 000:837 JLINK_IsHalted()  returns FALSE (0002ms, 0423ms total)
T3758 000:840 JLINK_IsHalted() -- CPU_ReadMem(2 bytes @ 0x20000000)  returns TRUE (0007ms, 0428ms total)
T3758 000:847 JLINK_ReadReg(R15 (PC))  returns 0x20000000 (0000ms, 0421ms total)
T3758 000:847 JLINK_ClrBPEx(BPHandle = 0x0000000A)  returns 0x00 (0000ms, 0421ms total)
T3758 000:847 JLINK_ReadReg(R0)  returns 0x00000000 (0000ms, 0421ms total)
T3758 000:848 JLINK_WriteMem(0x20000164, 0x0400 Bytes, ...) - Data: 02 F0 C7 FF 00 20 02 F0 C4 FF 00 20 02 F0 C1 FF ... -- CPU_WriteMem(1024 bytes @ 0x20000164)  returns 0x400 (0007ms, 0428ms total)
T3758 000:855 JLINK_WriteReg(R0, 0x08001800)  returns 0x00 (0000ms, 0428ms total)
T3758 000:855 JLINK_WriteReg(R1, 0x00000400)  returns 0x00 (0000ms, 0428ms total)
T3758 000:855 JLINK_WriteReg(R2, 0x20000164)  returns 0x00 (0000ms, 0428ms total)
T3758 000:855 JLINK_WriteReg(R3, 0x00000000)  returns 0x00 (0000ms, 0428ms total)
T3758 000:855 JLINK_WriteReg(R4, 0x00000000)  returns 0x00 (0000ms, 0428ms total)
T3758 000:855 JLINK_WriteReg(R5, 0x00000000)  returns 0x00 (0000ms, 0428ms total)
T3758 000:855 JLINK_WriteReg(R6, 0x00000000)  returns 0x00 (0000ms, 0428ms total)
T3758 000:855 JLINK_WriteReg(R7, 0x00000000)  returns 0x00 (0000ms, 0428ms total)
T3758 000:855 JLINK_WriteReg(R8, 0x00000000)  returns 0x00 (0000ms, 0428ms total)
T3758 000:855 JLINK_WriteReg(R9, 0x20000160)  returns 0x00 (0000ms, 0428ms total)
T3758 000:855 JLINK_WriteReg(R10, 0x00000000)  returns 0x00 (0000ms, 0428ms total)
T3758 000:855 JLINK_WriteReg(R11, 0x00000000)  returns 0x00 (0000ms, 0428ms total)
T3758 000:855 JLINK_WriteReg(R12, 0x00000000)  returns 0x00 (0000ms, 0428ms total)
T3758 000:855 JLINK_WriteReg(R13 (SP), 0x20001000)  returns 0x00 (0000ms, 0428ms total)
T3758 000:855 JLINK_WriteReg(R14, 0x20000001)  returns 0x00 (0000ms, 0428ms total)
T3758 000:855 JLINK_WriteReg(R15 (PC), 0x200000F4)  returns 0x00 (0000ms, 0428ms total)
T3758 000:855 JLINK_WriteReg(XPSR, 0x01000000)  returns 0x00 (0000ms, 0428ms total)
T3758 000:855 JLINK_WriteReg(MSP, 0x20001000)  returns 0x00 (0000ms, 0428ms total)
T3758 000:855 JLINK_WriteReg(PSP, 0x20001000)  returns 0x00 (0000ms, 0428ms total)
T3758 000:855 JLINK_WriteReg(CFBP, 0x00000000)  returns 0x00 (0000ms, 0428ms total)
T3758 000:855 JLINK_SetBPEx(Addr = 0x20000000, Type = 0xFFFFFFF2)  returns 0x0000000B (0000ms, 0428ms total)
T3758 000:855 JLINK_Go() -- CPU_ReadMem(4 bytes @ 0xE0001000) (0004ms, 0432ms total)
T3758 000:859 JLINK_IsHalted()  returns FALSE (0001ms, 0433ms total)
T3758 000:862 JLINK_IsHalted()  returns FALSE (0002ms, 0434ms total)
T3758 000:865 JLINK_IsHalted()  returns FALSE (0002ms, 0434ms total)
T3758 000:868 JLINK_IsHalted()  returns FALSE (0002ms, 0434ms total)
T3758 000:871 JLINK_IsHalted()  returns FALSE (0002ms, 0434ms total)
T3758 000:874 JLINK_IsHalted()  returns FALSE (0002ms, 0434ms total)
T3758 000:877 JLINK_IsHalted()  returns FALSE (0002ms, 0434ms total)
T3758 000:880 JLINK_IsHalted()  returns FALSE (0002ms, 0434ms total)
T3758 000:883 JLINK_IsHalted()  returns FALSE (0002ms, 0434ms total)
T3758 000:886 JLINK_IsHalted()  returns FALSE (0002ms, 0434ms total)
T3758 000:889 JLINK_IsHalted() -- CPU_ReadMem(2 bytes @ 0x20000000)  returns TRUE (0006ms, 0438ms total)
T3758 000:895 JLINK_ReadReg(R15 (PC))  returns 0x20000000 (0000ms, 0432ms total)
T3758 000:895 JLINK_ClrBPEx(BPHandle = 0x0000000B)  returns 0x00 (0000ms, 0432ms total)
T3758 000:895 JLINK_ReadReg(R0)  returns 0x00000000 (0000ms, 0432ms total)
T3758 000:895 JLINK_WriteMem(0x20000164, 0x0400 Bytes, ...) - Data: 02 F0 C7 FD F3 20 02 F0 C4 FD 00 20 02 F0 C1 FD ... -- CPU_WriteMem(1024 bytes @ 0x20000164)  returns 0x400 (0007ms, 0439ms total)
T3758 000:902 JLINK_WriteReg(R0, 0x08001C00)  returns 0x00 (0000ms, 0439ms total)
T3758 000:902 JLINK_WriteReg(R1, 0x00000400)  returns 0x00 (0000ms, 0439ms total)
T3758 000:902 JLINK_WriteReg(R2, 0x20000164)  returns 0x00 (0000ms, 0439ms total)
T3758 000:902 JLINK_WriteReg(R3, 0x00000000)  returns 0x00 (0000ms, 0439ms total)
T3758 000:902 JLINK_WriteReg(R4, 0x00000000)  returns 0x00 (0000ms, 0439ms total)
T3758 000:902 JLINK_WriteReg(R5, 0x00000000)  returns 0x00 (0000ms, 0439ms total)
T3758 000:902 JLINK_WriteReg(R6, 0x00000000)  returns 0x00 (0000ms, 0439ms total)
T3758 000:902 JLINK_WriteReg(R7, 0x00000000)  returns 0x00 (0000ms, 0439ms total)
T3758 000:902 JLINK_WriteReg(R8, 0x00000000)  returns 0x00 (0000ms, 0439ms total)
T3758 000:902 JLINK_WriteReg(R9, 0x20000160)  returns 0x00 (0000ms, 0439ms total)
T3758 000:902 JLINK_WriteReg(R10, 0x00000000)  returns 0x00 (0000ms, 0439ms total)
T3758 000:902 JLINK_WriteReg(R11, 0x00000000)  returns 0x00 (0000ms, 0439ms total)
T3758 000:902 JLINK_WriteReg(R12, 0x00000000)  returns 0x00 (0000ms, 0439ms total)
T3758 000:902 JLINK_WriteReg(R13 (SP), 0x20001000)  returns 0x00 (0000ms, 0439ms total)
T3758 000:902 JLINK_WriteReg(R14, 0x20000001)  returns 0x00 (0000ms, 0439ms total)
T3758 000:902 JLINK_WriteReg(R15 (PC), 0x200000F4)  returns 0x00 (0000ms, 0439ms total)
T3758 000:902 JLINK_WriteReg(XPSR, 0x01000000)  returns 0x00 (0000ms, 0439ms total)
T3758 000:902 JLINK_WriteReg(MSP, 0x20001000)  returns 0x00 (0000ms, 0439ms total)
T3758 000:902 JLINK_WriteReg(PSP, 0x20001000)  returns 0x00 (0000ms, 0439ms total)
T3758 000:902 JLINK_WriteReg(CFBP, 0x00000000)  returns 0x00 (0000ms, 0439ms total)
T3758 000:902 JLINK_SetBPEx(Addr = 0x20000000, Type = 0xFFFFFFF2)  returns 0x0000000C (0000ms, 0439ms total)
T3758 000:902 JLINK_Go() -- CPU_ReadMem(4 bytes @ 0xE0001000) (0004ms, 0443ms total)
T3758 000:906 JLINK_IsHalted()  returns FALSE (0001ms, 0444ms total)
T3758 000:909 JLINK_IsHalted()  returns FALSE (0001ms, 0444ms total)
T3758 000:912 JLINK_IsHalted()  returns FALSE (0001ms, 0444ms total)
T3758 000:915 JLINK_IsHalted()  returns FALSE (0001ms, 0444ms total)
T3758 000:918 JLINK_IsHalted()  returns FALSE (0001ms, 0444ms total)
T3758 000:921 JLINK_IsHalted()  returns FALSE (0001ms, 0444ms total)
T3758 000:923 JLINK_IsHalted()  returns FALSE (0001ms, 0444ms total)
T3758 000:926 JLINK_IsHalted()  returns FALSE (0001ms, 0444ms total)
T3758 000:928 JLINK_IsHalted()  returns FALSE (0001ms, 0444ms total)
T3758 000:930 JLINK_IsHalted()  returns FALSE (0001ms, 0444ms total)
T3758 000:932 JLINK_IsHalted()  returns FALSE (0002ms, 0445ms total)
T3758 000:935 JLINK_IsHalted() -- CPU_ReadMem(2 bytes @ 0x20000000)  returns TRUE (0007ms, 0450ms total)
T3758 000:942 JLINK_ReadReg(R15 (PC))  returns 0x20000000 (0000ms, 0443ms total)
T3758 000:942 JLINK_ClrBPEx(BPHandle = 0x0000000C)  returns 0x00 (0000ms, 0443ms total)
T3758 000:942 JLINK_ReadReg(R0)  returns 0x00000000 (0000ms, 0443ms total)
T3758 000:943 JLINK_WriteMem(0x20000164, 0x0400 Bytes, ...) - Data: 00 20 02 F0 C6 FB 44 20 02 F0 C3 FB 00 20 02 F0 ... -- CPU_WriteMem(1024 bytes @ 0x20000164)  returns 0x400 (0006ms, 0449ms total)
T3758 000:949 JLINK_WriteReg(R0, 0x08002000)  returns 0x00 (0000ms, 0449ms total)
T3758 000:949 JLINK_WriteReg(R1, 0x00000400)  returns 0x00 (0000ms, 0449ms total)
T3758 000:949 JLINK_WriteReg(R2, 0x20000164)  returns 0x00 (0000ms, 0449ms total)
T3758 000:949 JLINK_WriteReg(R3, 0x00000000)  returns 0x00 (0000ms, 0449ms total)
T3758 000:949 JLINK_WriteReg(R4, 0x00000000)  returns 0x00 (0000ms, 0449ms total)
T3758 000:949 JLINK_WriteReg(R5, 0x00000000)  returns 0x00 (0000ms, 0449ms total)
T3758 000:949 JLINK_WriteReg(R6, 0x00000000)  returns 0x00 (0000ms, 0449ms total)
T3758 000:949 JLINK_WriteReg(R7, 0x00000000)  returns 0x00 (0000ms, 0449ms total)
T3758 000:949 JLINK_WriteReg(R8, 0x00000000)  returns 0x00 (0000ms, 0449ms total)
T3758 000:949 JLINK_WriteReg(R9, 0x20000160)  returns 0x00 (0000ms, 0449ms total)
T3758 000:949 JLINK_WriteReg(R10, 0x00000000)  returns 0x00 (0000ms, 0449ms total)
T3758 000:949 JLINK_WriteReg(R11, 0x00000000)  returns 0x00 (0000ms, 0449ms total)
T3758 000:949 JLINK_WriteReg(R12, 0x00000000)  returns 0x00 (0000ms, 0449ms total)
T3758 000:949 JLINK_WriteReg(R13 (SP), 0x20001000)  returns 0x00 (0000ms, 0449ms total)
T3758 000:949 JLINK_WriteReg(R14, 0x20000001)  returns 0x00 (0000ms, 0449ms total)
T3758 000:949 JLINK_WriteReg(R15 (PC), 0x200000F4)  returns 0x00 (0000ms, 0449ms total)
T3758 000:949 JLINK_WriteReg(XPSR, 0x01000000)  returns 0x00 (0000ms, 0449ms total)
T3758 000:949 JLINK_WriteReg(MSP, 0x20001000)  returns 0x00 (0000ms, 0449ms total)
T3758 000:949 JLINK_WriteReg(PSP, 0x20001000)  returns 0x00 (0000ms, 0449ms total)
T3758 000:949 JLINK_WriteReg(CFBP, 0x00000000)  returns 0x00 (0000ms, 0449ms total)
T3758 000:949 JLINK_SetBPEx(Addr = 0x20000000, Type = 0xFFFFFFF2)  returns 0x0000000D (0000ms, 0449ms total)
T3758 000:949 JLINK_Go() -- CPU_ReadMem(4 bytes @ 0xE0001000) (0005ms, 0454ms total)
T3758 000:954 JLINK_IsHalted()  returns FALSE (0001ms, 0455ms total)
T3758 000:957 JLINK_IsHalted()  returns FALSE (0002ms, 0456ms total)
T3758 000:960 JLINK_IsHalted()  returns FALSE (0002ms, 0456ms total)
T3758 000:963 JLINK_IsHalted()  returns FALSE (0002ms, 0456ms total)
T3758 000:966 JLINK_IsHalted()  returns FALSE (0002ms, 0456ms total)
T3758 000:969 JLINK_IsHalted()  returns FALSE (0002ms, 0456ms total)
T3758 000:972 JLINK_IsHalted()  returns FALSE (0002ms, 0456ms total)
T3758 000:975 JLINK_IsHalted()  returns FALSE (0002ms, 0456ms total)
T3758 000:978 JLINK_IsHalted()  returns FALSE (0002ms, 0456ms total)
T3758 000:981 JLINK_IsHalted()  returns FALSE (0002ms, 0456ms total)
T3758 000:984 JLINK_IsHalted() -- CPU_ReadMem(2 bytes @ 0x20000000)  returns TRUE (0007ms, 0461ms total)
T3758 000:991 JLINK_ReadReg(R15 (PC))  returns 0x20000000 (0000ms, 0454ms total)
T3758 000:991 JLINK_ClrBPEx(BPHandle = 0x0000000D)  returns 0x00 (0000ms, 0454ms total)
T3758 000:991 JLINK_ReadReg(R0)  returns 0x00000000 (0000ms, 0454ms total)
T3758 000:991 JLINK_WriteMem(0x20000164, 0x0400 Bytes, ...) - Data: 02 F0 E6 F9 01 21 4D F2 16 10 02 F0 E1 F9 CA 21 ... -- CPU_WriteMem(1024 bytes @ 0x20000164)  returns 0x400 (0007ms, 0461ms total)
T3758 000:998 JLINK_WriteReg(R0, 0x08002400)  returns 0x00 (0000ms, 0461ms total)
T3758 000:998 JLINK_WriteReg(R1, 0x00000400)  returns 0x00 (0000ms, 0461ms total)
T3758 000:998 JLINK_WriteReg(R2, 0x20000164)  returns 0x00 (0000ms, 0461ms total)
T3758 000:998 JLINK_WriteReg(R3, 0x00000000)  returns 0x00 (0000ms, 0461ms total)
T3758 000:998 JLINK_WriteReg(R4, 0x00000000)  returns 0x00 (0000ms, 0461ms total)
T3758 000:998 JLINK_WriteReg(R5, 0x00000000)  returns 0x00 (0000ms, 0461ms total)
T3758 000:998 JLINK_WriteReg(R6, 0x00000000)  returns 0x00 (0000ms, 0461ms total)
T3758 000:998 JLINK_WriteReg(R7, 0x00000000)  returns 0x00 (0000ms, 0461ms total)
T3758 000:998 JLINK_WriteReg(R8, 0x00000000)  returns 0x00 (0000ms, 0461ms total)
T3758 000:998 JLINK_WriteReg(R9, 0x20000160)  returns 0x00 (0000ms, 0461ms total)
T3758 000:998 JLINK_WriteReg(R10, 0x00000000)  returns 0x00 (0000ms, 0461ms total)
T3758 000:998 JLINK_WriteReg(R11, 0x00000000)  returns 0x00 (0000ms, 0461ms total)
T3758 000:998 JLINK_WriteReg(R12, 0x00000000)  returns 0x00 (0000ms, 0461ms total)
T3758 000:998 JLINK_WriteReg(R13 (SP), 0x20001000)  returns 0x00 (0000ms, 0461ms total)
T3758 000:998 JLINK_WriteReg(R14, 0x20000001)  returns 0x00 (0000ms, 0461ms total)
T3758 000:998 JLINK_WriteReg(R15 (PC), 0x200000F4)  returns 0x00 (0000ms, 0461ms total)
T3758 000:998 JLINK_WriteReg(XPSR, 0x01000000)  returns 0x00 (0000ms, 0461ms total)
T3758 000:998 JLINK_WriteReg(MSP, 0x20001000)  returns 0x00 (0000ms, 0461ms total)
T3758 000:998 JLINK_WriteReg(PSP, 0x20001000)  returns 0x00 (0000ms, 0461ms total)
T3758 000:998 JLINK_WriteReg(CFBP, 0x00000000)  returns 0x00 (0000ms, 0461ms total)
T3758 000:998 JLINK_SetBPEx(Addr = 0x20000000, Type = 0xFFFFFFF2)  returns 0x0000000E (0000ms, 0461ms total)
T3758 000:998 JLINK_Go() -- CPU_ReadMem(4 bytes @ 0xE0001000) (0004ms, 0465ms total)
T3758 001:002 JLINK_IsHalted()  returns FALSE (0001ms, 0466ms total)
T3758 001:004 JLINK_IsHalted()  returns FALSE (0002ms, 0467ms total)
T3758 001:007 JLINK_IsHalted()  returns FALSE (0002ms, 0467ms total)
T3758 001:010 JLINK_IsHalted()  returns FALSE (0002ms, 0467ms total)
T3758 001:013 JLINK_IsHalted()  returns FALSE (0002ms, 0467ms total)
T3758 001:016 JLINK_IsHalted()  returns FALSE (0002ms, 0467ms total)
T3758 001:019 JLINK_IsHalted()  returns FALSE (0002ms, 0467ms total)
T3758 001:022 JLINK_IsHalted()  returns FALSE (0002ms, 0467ms total)
T3758 001:025 JLINK_IsHalted()  returns FALSE (0002ms, 0467ms total)
T3758 001:028 JLINK_IsHalted()  returns FALSE (0002ms, 0467ms total)
T3758 001:031 JLINK_IsHalted() -- CPU_ReadMem(2 bytes @ 0x20000000)  returns TRUE (0007ms, 0472ms total)
T3758 001:038 JLINK_ReadReg(R15 (PC))  returns 0x20000000 (0000ms, 0465ms total)
T3758 001:038 JLINK_ClrBPEx(BPHandle = 0x0000000E)  returns 0x00 (0000ms, 0465ms total)
T3758 001:038 JLINK_ReadReg(R0)  returns 0x00000000 (0000ms, 0465ms total)
T3758 001:038 JLINK_WriteMem(0x20000164, 0x0400 Bytes, ...) - Data: 01 21 4D F2 14 30 01 F0 E3 FF 82 21 4D F2 15 30 ... -- CPU_WriteMem(1024 bytes @ 0x20000164)  returns 0x400 (0007ms, 0472ms total)
T3758 001:045 JLINK_WriteReg(R0, 0x08002800)  returns 0x00 (0000ms, 0472ms total)
T3758 001:045 JLINK_WriteReg(R1, 0x00000400)  returns 0x00 (0000ms, 0472ms total)
T3758 001:045 JLINK_WriteReg(R2, 0x20000164)  returns 0x00 (0000ms, 0472ms total)
T3758 001:045 JLINK_WriteReg(R3, 0x00000000)  returns 0x00 (0000ms, 0472ms total)
T3758 001:045 JLINK_WriteReg(R4, 0x00000000)  returns 0x00 (0000ms, 0472ms total)
T3758 001:045 JLINK_WriteReg(R5, 0x00000000)  returns 0x00 (0000ms, 0472ms total)
T3758 001:045 JLINK_WriteReg(R6, 0x00000000)  returns 0x00 (0000ms, 0472ms total)
T3758 001:045 JLINK_WriteReg(R7, 0x00000000)  returns 0x00 (0000ms, 0472ms total)
T3758 001:045 JLINK_WriteReg(R8, 0x00000000)  returns 0x00 (0000ms, 0472ms total)
T3758 001:045 JLINK_WriteReg(R9, 0x20000160)  returns 0x00 (0000ms, 0472ms total)
T3758 001:045 JLINK_WriteReg(R10, 0x00000000)  returns 0x00 (0000ms, 0472ms total)
T3758 001:045 JLINK_WriteReg(R11, 0x00000000)  returns 0x00 (0000ms, 0472ms total)
T3758 001:045 JLINK_WriteReg(R12, 0x00000000)  returns 0x00 (0000ms, 0472ms total)
T3758 001:045 JLINK_WriteReg(R13 (SP), 0x20001000)  returns 0x00 (0000ms, 0472ms total)
T3758 001:045 JLINK_WriteReg(R14, 0x20000001)  returns 0x00 (0000ms, 0472ms total)
T3758 001:045 JLINK_WriteReg(R15 (PC), 0x200000F4)  returns 0x00 (0000ms, 0472ms total)
T3758 001:045 JLINK_WriteReg(XPSR, 0x01000000)  returns 0x00 (0000ms, 0472ms total)
T3758 001:045 JLINK_WriteReg(MSP, 0x20001000)  returns 0x00 (0000ms, 0472ms total)
T3758 001:045 JLINK_WriteReg(PSP, 0x20001000)  returns 0x00 (0000ms, 0472ms total)
T3758 001:045 JLINK_WriteReg(CFBP, 0x00000000)  returns 0x00 (0000ms, 0472ms total)
T3758 001:045 JLINK_SetBPEx(Addr = 0x20000000, Type = 0xFFFFFFF2)  returns 0x0000000F (0000ms, 0472ms total)
T3758 001:045 JLINK_Go() -- CPU_ReadMem(4 bytes @ 0xE0001000) (0004ms, 0476ms total)
T3758 001:049 JLINK_IsHalted()  returns FALSE (0001ms, 0477ms total)
T3758 001:051 JLINK_IsHalted()  returns FALSE (0002ms, 0478ms total)
T3758 001:055 JLINK_IsHalted()  returns FALSE (0001ms, 0477ms total)
T3758 001:058 JLINK_IsHalted()  returns FALSE (0001ms, 0477ms total)
T3758 001:061 JLINK_IsHalted()  returns FALSE (0001ms, 0477ms total)
T3758 001:064 JLINK_IsHalted()  returns FALSE (0001ms, 0477ms total)
T3758 001:069 JLINK_IsHalted()  returns FALSE (0002ms, 0478ms total)
